                                kicad schematic
                                Transient Analysis  Sat May 30 08:17:23  2026
--------------------------------------------------------------------------------
Index   time            a12#branch_1_0  a13#branch_1_0  a14#branch_1_0  
--------------------------------------------------------------------------------
0	0.000000e+00	0.000000e+00	0.000000e+00	0.000000e+00	
1	1.000000e-11	0.000000e+00	0.000000e+00	0.000000e+00	
2	2.000000e-11	0.000000e+00	0.000000e+00	0.000000e+00	
3	4.000000e-11	0.000000e+00	0.000000e+00	0.000000e+00	
4	8.000000e-11	0.000000e+00	0.000000e+00	0.000000e+00	
5	1.600000e-10	0.000000e+00	0.000000e+00	0.000000e+00	
6	3.200000e-10	0.000000e+00	0.000000e+00	0.000000e+00	
7	6.400000e-10	0.000000e+00	0.000000e+00	0.000000e+00	
8	1.000000e-09	0.000000e+00	0.000000e+00	0.000000e+00	
9	1.064000e-09	0.000000e+00	0.000000e+00	0.000000e+00	
10	1.192000e-09	0.000000e+00	0.000000e+00	0.000000e+00	
11	1.448000e-09	0.000000e+00	0.000000e+00	0.000000e+00	
12	1.960000e-09	0.000000e+00	0.000000e+00	0.000000e+00	
13	2.984000e-09	0.000000e+00	0.000000e+00	0.000000e+00	
14	3.640000e-09	0.000000e+00	0.000000e+00	0.000000e+00	
15	3.740000e-09	-5.00000e-07	0.000000e+00	0.000000e+00	
16	3.940000e-09	-1.50000e-06	0.000000e+00	0.000000e+00	
17	4.340000e-09	-3.50000e-06	0.000000e+00	0.000000e+00	
18	4.640000e-09	-5.00000e-06	0.000000e+00	0.000000e+00	
19	4.720000e-09	-5.00000e-06	0.000000e+00	0.000000e+00	
20	4.880000e-09	-5.00000e-06	0.000000e+00	0.000000e+00	
21	5.200000e-09	-5.00000e-06	0.000000e+00	0.000000e+00	
22	5.840000e-09	-5.00000e-06	0.000000e+00	0.000000e+00	
23	7.120000e-09	-5.00000e-06	0.000000e+00	0.000000e+00	
24	9.680000e-09	-5.00000e-06	0.000000e+00	0.000000e+00	
25	1.480000e-08	-5.00000e-06	0.000000e+00	0.000000e+00	
26	2.480000e-08	-5.00000e-06	0.000000e+00	0.000000e+00	
27	3.480000e-08	-5.00000e-06	0.000000e+00	0.000000e+00	
28	4.480000e-08	-5.00000e-06	0.000000e+00	0.000000e+00	
29	5.480000e-08	-5.00000e-06	0.000000e+00	0.000000e+00	
30	6.480000e-08	-5.00000e-06	0.000000e+00	0.000000e+00	
31	7.480000e-08	-5.00000e-06	0.000000e+00	0.000000e+00	
32	8.480000e-08	-5.00000e-06	0.000000e+00	0.000000e+00	
33	9.480000e-08	-5.00000e-06	0.000000e+00	0.000000e+00	
34	1.048000e-07	-5.00000e-06	0.000000e+00	0.000000e+00	
35	1.148000e-07	-5.00000e-06	0.000000e+00	0.000000e+00	
36	1.248000e-07	-5.00000e-06	0.000000e+00	0.000000e+00	
37	1.348000e-07	-5.00000e-06	0.000000e+00	0.000000e+00	
38	1.448000e-07	-5.00000e-06	0.000000e+00	0.000000e+00	
39	1.548000e-07	-5.00000e-06	0.000000e+00	0.000000e+00	
40	1.648000e-07	-5.00000e-06	0.000000e+00	0.000000e+00	
41	1.748000e-07	-5.00000e-06	0.000000e+00	0.000000e+00	
42	1.848000e-07	-5.00000e-06	0.000000e+00	0.000000e+00	
43	1.948000e-07	-5.00000e-06	0.000000e+00	0.000000e+00	
44	2.048000e-07	-5.00000e-06	0.000000e+00	0.000000e+00	
45	2.148000e-07	-5.00000e-06	0.000000e+00	0.000000e+00	
46	2.248000e-07	-5.00000e-06	0.000000e+00	0.000000e+00	
47	2.348000e-07	-5.00000e-06	0.000000e+00	0.000000e+00	
48	2.448000e-07	-5.00000e-06	0.000000e+00	0.000000e+00	
49	2.548000e-07	-5.00000e-06	0.000000e+00	0.000000e+00	
50	2.648000e-07	-5.00000e-06	0.000000e+00	0.000000e+00	
51	2.748000e-07	-5.00000e-06	0.000000e+00	0.000000e+00	
52	2.848000e-07	-5.00000e-06	0.000000e+00	0.000000e+00	
53	2.948000e-07	-5.00000e-06	0.000000e+00	0.000000e+00	
54	3.048000e-07	-5.00000e-06	0.000000e+00	0.000000e+00	

Index   time            a12#branch_1_0  a13#branch_1_0  a14#branch_1_0  
--------------------------------------------------------------------------------
55	3.148000e-07	-5.00000e-06	0.000000e+00	0.000000e+00	
56	3.248000e-07	-5.00000e-06	0.000000e+00	0.000000e+00	
57	3.348000e-07	-5.00000e-06	0.000000e+00	0.000000e+00	
58	3.448000e-07	-5.00000e-06	0.000000e+00	0.000000e+00	
59	3.548000e-07	-5.00000e-06	0.000000e+00	0.000000e+00	
60	3.648000e-07	-5.00000e-06	0.000000e+00	0.000000e+00	
61	3.748000e-07	-5.00000e-06	0.000000e+00	0.000000e+00	
62	3.848000e-07	-5.00000e-06	0.000000e+00	0.000000e+00	
63	3.948000e-07	-5.00000e-06	0.000000e+00	0.000000e+00	
64	4.048000e-07	-5.00000e-06	0.000000e+00	0.000000e+00	
65	4.148000e-07	-5.00000e-06	0.000000e+00	0.000000e+00	
66	4.248000e-07	-5.00000e-06	0.000000e+00	0.000000e+00	
67	4.348000e-07	-5.00000e-06	0.000000e+00	0.000000e+00	
68	4.448000e-07	-5.00000e-06	0.000000e+00	0.000000e+00	
69	4.548000e-07	-5.00000e-06	0.000000e+00	0.000000e+00	
70	4.648000e-07	-5.00000e-06	0.000000e+00	0.000000e+00	
71	4.748000e-07	-5.00000e-06	0.000000e+00	0.000000e+00	
72	4.848000e-07	-5.00000e-06	0.000000e+00	0.000000e+00	
73	4.948000e-07	-5.00000e-06	0.000000e+00	0.000000e+00	
74	5.010000e-07	-5.00000e-06	0.000000e+00	0.000000e+00	
75	5.011000e-07	-5.00000e-06	0.000000e+00	0.000000e+00	
76	5.013000e-07	-5.00000e-06	0.000000e+00	0.000000e+00	
77	5.017000e-07	-5.00000e-06	0.000000e+00	0.000000e+00	
78	5.020000e-07	-5.00000e-06	0.000000e+00	0.000000e+00	
79	5.020800e-07	-5.00000e-06	0.000000e+00	0.000000e+00	
80	5.022400e-07	-5.00000e-06	0.000000e+00	0.000000e+00	
81	5.025600e-07	-5.00000e-06	0.000000e+00	0.000000e+00	
82	5.032000e-07	-5.00000e-06	0.000000e+00	0.000000e+00	
83	5.044800e-07	-5.00000e-06	0.000000e+00	0.000000e+00	
84	5.070400e-07	-5.00000e-06	0.000000e+00	0.000000e+00	
85	5.121600e-07	-5.00000e-06	0.000000e+00	0.000000e+00	
86	5.221600e-07	-5.00000e-06	0.000000e+00	0.000000e+00	
87	5.321600e-07	-5.00000e-06	0.000000e+00	0.000000e+00	
88	5.421600e-07	-5.00000e-06	0.000000e+00	0.000000e+00	
89	5.521600e-07	-5.00000e-06	0.000000e+00	0.000000e+00	
90	5.621600e-07	-5.00000e-06	0.000000e+00	0.000000e+00	
91	5.721600e-07	-5.00000e-06	0.000000e+00	0.000000e+00	
92	5.821600e-07	-5.00000e-06	0.000000e+00	0.000000e+00	
93	5.921600e-07	-5.00000e-06	0.000000e+00	0.000000e+00	
94	6.021600e-07	-5.00000e-06	0.000000e+00	0.000000e+00	
95	6.121600e-07	-5.00000e-06	0.000000e+00	0.000000e+00	
96	6.221600e-07	-5.00000e-06	0.000000e+00	0.000000e+00	
97	6.321600e-07	-5.00000e-06	0.000000e+00	0.000000e+00	
98	6.421600e-07	-5.00000e-06	0.000000e+00	0.000000e+00	
99	6.521600e-07	-5.00000e-06	0.000000e+00	0.000000e+00	
100	6.621600e-07	-5.00000e-06	0.000000e+00	0.000000e+00	
101	6.721600e-07	-5.00000e-06	0.000000e+00	0.000000e+00	
102	6.821600e-07	-5.00000e-06	0.000000e+00	0.000000e+00	
103	6.921600e-07	-5.00000e-06	0.000000e+00	0.000000e+00	
104	7.021600e-07	-5.00000e-06	0.000000e+00	0.000000e+00	
105	7.121600e-07	-5.00000e-06	0.000000e+00	0.000000e+00	
106	7.221600e-07	-5.00000e-06	0.000000e+00	0.000000e+00	
107	7.321600e-07	-5.00000e-06	0.000000e+00	0.000000e+00	
108	7.421600e-07	-5.00000e-06	0.000000e+00	0.000000e+00	
109	7.521600e-07	-5.00000e-06	0.000000e+00	0.000000e+00	
110	7.621600e-07	-5.00000e-06	0.000000e+00	0.000000e+00	
111	7.721600e-07	-5.00000e-06	0.000000e+00	0.000000e+00	
112	7.821600e-07	-5.00000e-06	0.000000e+00	0.000000e+00	

Index   time            a12#branch_1_0  a13#branch_1_0  a14#branch_1_0  
--------------------------------------------------------------------------------
113	7.921600e-07	-5.00000e-06	0.000000e+00	0.000000e+00	
114	8.021600e-07	-5.00000e-06	0.000000e+00	0.000000e+00	
115	8.121600e-07	-5.00000e-06	0.000000e+00	0.000000e+00	
116	8.221600e-07	-5.00000e-06	0.000000e+00	0.000000e+00	
117	8.321600e-07	-5.00000e-06	0.000000e+00	0.000000e+00	
118	8.421600e-07	-5.00000e-06	0.000000e+00	0.000000e+00	
119	8.521600e-07	-5.00000e-06	0.000000e+00	0.000000e+00	
120	8.621600e-07	-5.00000e-06	0.000000e+00	0.000000e+00	
121	8.721600e-07	-5.00000e-06	0.000000e+00	0.000000e+00	
122	8.821600e-07	-5.00000e-06	0.000000e+00	0.000000e+00	
123	8.921600e-07	-5.00000e-06	0.000000e+00	0.000000e+00	
124	9.021600e-07	-5.00000e-06	0.000000e+00	0.000000e+00	
125	9.121600e-07	-5.00000e-06	0.000000e+00	0.000000e+00	
126	9.221600e-07	-5.00000e-06	0.000000e+00	0.000000e+00	
127	9.321600e-07	-5.00000e-06	0.000000e+00	0.000000e+00	
128	9.421600e-07	-5.00000e-06	0.000000e+00	0.000000e+00	
129	9.521600e-07	-5.00000e-06	0.000000e+00	0.000000e+00	
130	9.621600e-07	-5.00000e-06	0.000000e+00	0.000000e+00	
131	9.721600e-07	-5.00000e-06	0.000000e+00	0.000000e+00	
132	9.821600e-07	-5.00000e-06	0.000000e+00	0.000000e+00	
133	9.900000e-07	-5.00000e-06	0.000000e+00	0.000000e+00	
134	9.910000e-07	-5.00000e-06	0.000000e+00	0.000000e+00	
135	9.930000e-07	-5.00000e-06	0.000000e+00	0.000000e+00	
136	9.970000e-07	-5.00000e-06	0.000000e+00	0.000000e+00	
137	1.000000e-06	-5.00000e-06	0.000000e+00	0.000000e+00	
138	1.000100e-06	-5.00000e-06	0.000000e+00	0.000000e+00	
139	1.000300e-06	-5.00000e-06	0.000000e+00	0.000000e+00	
140	1.000700e-06	-5.00000e-06	0.000000e+00	0.000000e+00	
141	1.001000e-06	-5.00000e-06	0.000000e+00	0.000000e+00	
142	1.001080e-06	-5.00000e-06	0.000000e+00	0.000000e+00	
143	1.001240e-06	-5.00000e-06	0.000000e+00	0.000000e+00	
144	1.001560e-06	-5.00000e-06	0.000000e+00	0.000000e+00	
145	1.002200e-06	-5.00000e-06	0.000000e+00	0.000000e+00	
146	1.003480e-06	-5.00000e-06	0.000000e+00	0.000000e+00	
147	1.003700e-06	-5.00000e-06	0.000000e+00	0.000000e+00	
148	1.003800e-06	-4.50000e-06	-5.00000e-07	0.000000e+00	
149	1.004000e-06	-3.50000e-06	-1.50000e-06	0.000000e+00	
150	1.004400e-06	-1.50000e-06	-3.50000e-06	0.000000e+00	
151	1.004700e-06	0.000000e+00	-5.00000e-06	0.000000e+00	
152	1.004780e-06	0.000000e+00	-5.00000e-06	0.000000e+00	
153	1.004940e-06	0.000000e+00	-5.00000e-06	0.000000e+00	
154	1.005260e-06	0.000000e+00	-5.00000e-06	0.000000e+00	
155	1.005900e-06	0.000000e+00	-5.00000e-06	0.000000e+00	
156	1.007180e-06	0.000000e+00	-5.00000e-06	0.000000e+00	
157	1.009740e-06	0.000000e+00	-5.00000e-06	0.000000e+00	
158	1.014860e-06	0.000000e+00	-5.00000e-06	0.000000e+00	
159	1.024860e-06	0.000000e+00	-5.00000e-06	0.000000e+00	
160	1.034860e-06	0.000000e+00	-5.00000e-06	0.000000e+00	
161	1.044860e-06	0.000000e+00	-5.00000e-06	0.000000e+00	
162	1.054860e-06	0.000000e+00	-5.00000e-06	0.000000e+00	
163	1.064860e-06	0.000000e+00	-5.00000e-06	0.000000e+00	
164	1.074860e-06	0.000000e+00	-5.00000e-06	0.000000e+00	
165	1.084860e-06	0.000000e+00	-5.00000e-06	0.000000e+00	
166	1.094860e-06	0.000000e+00	-5.00000e-06	0.000000e+00	
167	1.104860e-06	0.000000e+00	-5.00000e-06	0.000000e+00	
168	1.114860e-06	0.000000e+00	-5.00000e-06	0.000000e+00	
169	1.124860e-06	0.000000e+00	-5.00000e-06	0.000000e+00	
170	1.134860e-06	0.000000e+00	-5.00000e-06	0.000000e+00	

Index   time            a12#branch_1_0  a13#branch_1_0  a14#branch_1_0  
--------------------------------------------------------------------------------
171	1.144860e-06	0.000000e+00	-5.00000e-06	0.000000e+00	
172	1.154860e-06	0.000000e+00	-5.00000e-06	0.000000e+00	
173	1.164860e-06	0.000000e+00	-5.00000e-06	0.000000e+00	
174	1.174860e-06	0.000000e+00	-5.00000e-06	0.000000e+00	
175	1.184860e-06	0.000000e+00	-5.00000e-06	0.000000e+00	
176	1.194860e-06	0.000000e+00	-5.00000e-06	0.000000e+00	
177	1.204860e-06	0.000000e+00	-5.00000e-06	0.000000e+00	
178	1.214860e-06	0.000000e+00	-5.00000e-06	0.000000e+00	
179	1.224860e-06	0.000000e+00	-5.00000e-06	0.000000e+00	
180	1.234860e-06	0.000000e+00	-5.00000e-06	0.000000e+00	
181	1.244860e-06	0.000000e+00	-5.00000e-06	0.000000e+00	
182	1.254860e-06	0.000000e+00	-5.00000e-06	0.000000e+00	
183	1.264860e-06	0.000000e+00	-5.00000e-06	0.000000e+00	
184	1.274860e-06	0.000000e+00	-5.00000e-06	0.000000e+00	
185	1.284860e-06	0.000000e+00	-5.00000e-06	0.000000e+00	
186	1.294860e-06	0.000000e+00	-5.00000e-06	0.000000e+00	
187	1.304860e-06	0.000000e+00	-5.00000e-06	0.000000e+00	
188	1.314860e-06	0.000000e+00	-5.00000e-06	0.000000e+00	
189	1.324860e-06	0.000000e+00	-5.00000e-06	0.000000e+00	
190	1.334860e-06	0.000000e+00	-5.00000e-06	0.000000e+00	
191	1.344860e-06	0.000000e+00	-5.00000e-06	0.000000e+00	
192	1.354860e-06	0.000000e+00	-5.00000e-06	0.000000e+00	
193	1.364860e-06	0.000000e+00	-5.00000e-06	0.000000e+00	
194	1.374860e-06	0.000000e+00	-5.00000e-06	0.000000e+00	
195	1.384860e-06	0.000000e+00	-5.00000e-06	0.000000e+00	
196	1.394860e-06	0.000000e+00	-5.00000e-06	0.000000e+00	
197	1.404860e-06	0.000000e+00	-5.00000e-06	0.000000e+00	
198	1.414860e-06	0.000000e+00	-5.00000e-06	0.000000e+00	
199	1.424860e-06	0.000000e+00	-5.00000e-06	0.000000e+00	
200	1.434860e-06	0.000000e+00	-5.00000e-06	0.000000e+00	
201	1.444860e-06	0.000000e+00	-5.00000e-06	0.000000e+00	
202	1.454860e-06	0.000000e+00	-5.00000e-06	0.000000e+00	
203	1.464860e-06	0.000000e+00	-5.00000e-06	0.000000e+00	
204	1.474860e-06	0.000000e+00	-5.00000e-06	0.000000e+00	
205	1.484860e-06	0.000000e+00	-5.00000e-06	0.000000e+00	
206	1.494860e-06	0.000000e+00	-5.00000e-06	0.000000e+00	
207	1.501000e-06	0.000000e+00	-5.00000e-06	0.000000e+00	
208	1.501100e-06	0.000000e+00	-5.00000e-06	0.000000e+00	
209	1.501300e-06	0.000000e+00	-5.00000e-06	0.000000e+00	
210	1.501700e-06	0.000000e+00	-5.00000e-06	0.000000e+00	
211	1.502000e-06	0.000000e+00	-5.00000e-06	0.000000e+00	
212	1.502080e-06	0.000000e+00	-5.00000e-06	0.000000e+00	
213	1.502240e-06	0.000000e+00	-5.00000e-06	0.000000e+00	
214	1.502560e-06	0.000000e+00	-5.00000e-06	0.000000e+00	
215	1.503200e-06	0.000000e+00	-5.00000e-06	0.000000e+00	
216	1.504480e-06	0.000000e+00	-5.00000e-06	0.000000e+00	
217	1.507040e-06	0.000000e+00	-5.00000e-06	0.000000e+00	
218	1.512160e-06	0.000000e+00	-5.00000e-06	0.000000e+00	
219	1.522160e-06	0.000000e+00	-5.00000e-06	0.000000e+00	
220	1.532160e-06	0.000000e+00	-5.00000e-06	0.000000e+00	
221	1.542160e-06	0.000000e+00	-5.00000e-06	0.000000e+00	
222	1.552160e-06	0.000000e+00	-5.00000e-06	0.000000e+00	
223	1.562160e-06	0.000000e+00	-5.00000e-06	0.000000e+00	
224	1.572160e-06	0.000000e+00	-5.00000e-06	0.000000e+00	
225	1.582160e-06	0.000000e+00	-5.00000e-06	0.000000e+00	
226	1.592160e-06	0.000000e+00	-5.00000e-06	0.000000e+00	
227	1.602160e-06	0.000000e+00	-5.00000e-06	0.000000e+00	
228	1.612160e-06	0.000000e+00	-5.00000e-06	0.000000e+00	

Index   time            a12#branch_1_0  a13#branch_1_0  a14#branch_1_0  
--------------------------------------------------------------------------------
229	1.622160e-06	0.000000e+00	-5.00000e-06	0.000000e+00	
230	1.632160e-06	0.000000e+00	-5.00000e-06	0.000000e+00	
231	1.642160e-06	0.000000e+00	-5.00000e-06	0.000000e+00	
232	1.652160e-06	0.000000e+00	-5.00000e-06	0.000000e+00	
233	1.662160e-06	0.000000e+00	-5.00000e-06	0.000000e+00	
234	1.672160e-06	0.000000e+00	-5.00000e-06	0.000000e+00	
235	1.682160e-06	0.000000e+00	-5.00000e-06	0.000000e+00	
236	1.692160e-06	0.000000e+00	-5.00000e-06	0.000000e+00	
237	1.702160e-06	0.000000e+00	-5.00000e-06	0.000000e+00	
238	1.712160e-06	0.000000e+00	-5.00000e-06	0.000000e+00	
239	1.722160e-06	0.000000e+00	-5.00000e-06	0.000000e+00	
240	1.732160e-06	0.000000e+00	-5.00000e-06	0.000000e+00	
241	1.742160e-06	0.000000e+00	-5.00000e-06	0.000000e+00	
242	1.752160e-06	0.000000e+00	-5.00000e-06	0.000000e+00	
243	1.762160e-06	0.000000e+00	-5.00000e-06	0.000000e+00	
244	1.772160e-06	0.000000e+00	-5.00000e-06	0.000000e+00	
245	1.782160e-06	0.000000e+00	-5.00000e-06	0.000000e+00	
246	1.792160e-06	0.000000e+00	-5.00000e-06	0.000000e+00	
247	1.802160e-06	0.000000e+00	-5.00000e-06	0.000000e+00	
248	1.812160e-06	0.000000e+00	-5.00000e-06	0.000000e+00	
249	1.822160e-06	0.000000e+00	-5.00000e-06	0.000000e+00	
250	1.832160e-06	0.000000e+00	-5.00000e-06	0.000000e+00	
251	1.842160e-06	0.000000e+00	-5.00000e-06	0.000000e+00	
252	1.852160e-06	0.000000e+00	-5.00000e-06	0.000000e+00	
253	1.862160e-06	0.000000e+00	-5.00000e-06	0.000000e+00	
254	1.872160e-06	0.000000e+00	-5.00000e-06	0.000000e+00	
255	1.882160e-06	0.000000e+00	-5.00000e-06	0.000000e+00	
256	1.892160e-06	0.000000e+00	-5.00000e-06	0.000000e+00	
257	1.902160e-06	0.000000e+00	-5.00000e-06	0.000000e+00	
258	1.912160e-06	0.000000e+00	-5.00000e-06	0.000000e+00	
259	1.922160e-06	0.000000e+00	-5.00000e-06	0.000000e+00	
260	1.932160e-06	0.000000e+00	-5.00000e-06	0.000000e+00	
261	1.942160e-06	0.000000e+00	-5.00000e-06	0.000000e+00	
262	1.952160e-06	0.000000e+00	-5.00000e-06	0.000000e+00	
263	1.962160e-06	0.000000e+00	-5.00000e-06	0.000000e+00	
264	1.972160e-06	0.000000e+00	-5.00000e-06	0.000000e+00	
265	1.982160e-06	0.000000e+00	-5.00000e-06	0.000000e+00	
266	1.990000e-06	0.000000e+00	-5.00000e-06	0.000000e+00	
267	1.991000e-06	0.000000e+00	-5.00000e-06	0.000000e+00	
268	1.993000e-06	0.000000e+00	-5.00000e-06	0.000000e+00	
269	1.997000e-06	0.000000e+00	-5.00000e-06	0.000000e+00	
270	2.000000e-06	0.000000e+00	-5.00000e-06	0.000000e+00	
271	2.000100e-06	0.000000e+00	-5.00000e-06	0.000000e+00	
272	2.000300e-06	0.000000e+00	-5.00000e-06	0.000000e+00	
273	2.000700e-06	0.000000e+00	-5.00000e-06	0.000000e+00	
274	2.001000e-06	0.000000e+00	-5.00000e-06	0.000000e+00	
275	2.001080e-06	0.000000e+00	-5.00000e-06	0.000000e+00	
276	2.001240e-06	0.000000e+00	-5.00000e-06	0.000000e+00	
277	2.001560e-06	0.000000e+00	-5.00000e-06	0.000000e+00	
278	2.002200e-06	0.000000e+00	-5.00000e-06	0.000000e+00	
279	2.003480e-06	0.000000e+00	-5.00000e-06	0.000000e+00	
280	2.003700e-06	0.000000e+00	-5.00000e-06	0.000000e+00	
281	2.003800e-06	-5.00000e-07	-4.50000e-06	-5.00000e-07	
282	2.004000e-06	-1.50000e-06	-3.50000e-06	-1.50000e-06	
283	2.004400e-06	-3.50000e-06	-1.50000e-06	-3.50000e-06	
284	2.004700e-06	-5.00000e-06	0.000000e+00	-5.00000e-06	
285	2.004780e-06	-5.00000e-06	0.000000e+00	-5.00000e-06	
286	2.004940e-06	-5.00000e-06	0.000000e+00	-5.00000e-06	

Index   time            a12#branch_1_0  a13#branch_1_0  a14#branch_1_0  
--------------------------------------------------------------------------------
287	2.005260e-06	-5.00000e-06	0.000000e+00	-5.00000e-06	
288	2.005900e-06	-5.00000e-06	0.000000e+00	-5.00000e-06	
289	2.007180e-06	-5.00000e-06	0.000000e+00	-5.00000e-06	
290	2.009740e-06	-5.00000e-06	0.000000e+00	-5.00000e-06	
291	2.014860e-06	-5.00000e-06	0.000000e+00	-5.00000e-06	
292	2.024860e-06	-5.00000e-06	0.000000e+00	-5.00000e-06	
293	2.034860e-06	-5.00000e-06	0.000000e+00	-5.00000e-06	
294	2.044860e-06	-5.00000e-06	0.000000e+00	-5.00000e-06	
295	2.054860e-06	-5.00000e-06	0.000000e+00	-5.00000e-06	
296	2.064860e-06	-5.00000e-06	0.000000e+00	-5.00000e-06	
297	2.074860e-06	-5.00000e-06	0.000000e+00	-5.00000e-06	
298	2.084860e-06	-5.00000e-06	0.000000e+00	-5.00000e-06	
299	2.094860e-06	-5.00000e-06	0.000000e+00	-5.00000e-06	
300	2.104860e-06	-5.00000e-06	0.000000e+00	-5.00000e-06	
301	2.114860e-06	-5.00000e-06	0.000000e+00	-5.00000e-06	
302	2.124860e-06	-5.00000e-06	0.000000e+00	-5.00000e-06	
303	2.134860e-06	-5.00000e-06	0.000000e+00	-5.00000e-06	
304	2.144860e-06	-5.00000e-06	0.000000e+00	-5.00000e-06	
305	2.154860e-06	-5.00000e-06	0.000000e+00	-5.00000e-06	
306	2.164860e-06	-5.00000e-06	0.000000e+00	-5.00000e-06	
307	2.174860e-06	-5.00000e-06	0.000000e+00	-5.00000e-06	
308	2.184860e-06	-5.00000e-06	0.000000e+00	-5.00000e-06	
309	2.194860e-06	-5.00000e-06	0.000000e+00	-5.00000e-06	
310	2.204860e-06	-5.00000e-06	0.000000e+00	-5.00000e-06	
311	2.214860e-06	-5.00000e-06	0.000000e+00	-5.00000e-06	
312	2.224860e-06	-5.00000e-06	0.000000e+00	-5.00000e-06	
313	2.234860e-06	-5.00000e-06	0.000000e+00	-5.00000e-06	
314	2.244860e-06	-5.00000e-06	0.000000e+00	-5.00000e-06	
315	2.254860e-06	-5.00000e-06	0.000000e+00	-5.00000e-06	
316	2.264860e-06	-5.00000e-06	0.000000e+00	-5.00000e-06	
317	2.274860e-06	-5.00000e-06	0.000000e+00	-5.00000e-06	
318	2.284860e-06	-5.00000e-06	0.000000e+00	-5.00000e-06	
319	2.294860e-06	-5.00000e-06	0.000000e+00	-5.00000e-06	
320	2.304860e-06	-5.00000e-06	0.000000e+00	-5.00000e-06	
321	2.314860e-06	-5.00000e-06	0.000000e+00	-5.00000e-06	
322	2.324860e-06	-5.00000e-06	0.000000e+00	-5.00000e-06	
323	2.334860e-06	-5.00000e-06	0.000000e+00	-5.00000e-06	
324	2.344860e-06	-5.00000e-06	0.000000e+00	-5.00000e-06	
325	2.354860e-06	-5.00000e-06	0.000000e+00	-5.00000e-06	
326	2.364860e-06	-5.00000e-06	0.000000e+00	-5.00000e-06	
327	2.374860e-06	-5.00000e-06	0.000000e+00	-5.00000e-06	
328	2.384860e-06	-5.00000e-06	0.000000e+00	-5.00000e-06	
329	2.394860e-06	-5.00000e-06	0.000000e+00	-5.00000e-06	
330	2.404860e-06	-5.00000e-06	0.000000e+00	-5.00000e-06	
331	2.414860e-06	-5.00000e-06	0.000000e+00	-5.00000e-06	
